T2594 13951:054 SEGGER J-Link V6.48b Log File (0000ms, 13340ms total)
T2594 13951:054 DLL Compiled: Aug  2 2019 10:18:25 (0000ms, 13340ms total)
T2594 13951:054 Logging started @ 2019-08-22 10:02 (0000ms, 13340ms total)
T2594 13951:054 JLINK_SetWarnOutHandler(...) (0000ms, 13340ms total)
T2594 13951:054 JLINK_OpenEx(...)
Firmware: J-Link ARM V8 compiled Nov 28 2014 13:44:46
Hardware: V8.00
S/N: 17935099
Feature(s): RDI,FlashDL,FlashBP,JFlash
TELNET listener socket opened on port 19021WEBSRV 
Starting webserver (0036ms, 13376ms total)
T2594 13951:054 WEBSRV Webserver running on local port 19080 (0036ms, 13376ms total)
T2594 13951:054   returns O.K. (0036ms, 13376ms total)
T2594 13951:090 JLINK_GetEmuCaps()  returns 0xB9FF7BBF (0000ms, 13376ms total)
T2594 13951:091 JLINK_TIF_GetAvailable(...) (0000ms, 13376ms total)
T2594 13951:091 JLINK_SetErrorOutHandler(...) (0000ms, 13376ms total)
T2594 13951:091 JLINK_ExecCommand("ProjectFile = "C:\Users\ngoqu\Documents\GitHub\stm32c8t6SPI\JLinkSettings.ini"", ...).   returns 0x00 (0007ms, 13383ms total)
T2594 13951:100 JLINK_ExecCommand("Device = STM32F103C8", ...). Device "STM32F103C8" selected.  returns 0x00 (0003ms, 13386ms total)
T2594 13951:103 JLINK_ExecCommand("DisableConnectionTimeout", ...).   returns 0x01 (0000ms, 13386ms total)
T2594 13951:103 JLINK_GetHardwareVersion()  returns 0x13880 (0000ms, 13386ms total)
T2594 13951:103 JLINK_GetDLLVersion()  returns 64802 (0000ms, 13386ms total)
T2594 13951:103 JLINK_GetFirmwareString(...) (0000ms, 13386ms total)
T2594 13951:107 JLINK_GetDLLVersion()  returns 64802 (0000ms, 13386ms total)
T2594 13951:107 JLINK_GetCompileDateTime() (0000ms, 13386ms total)
T2594 13951:108 JLINK_GetFirmwareString(...) (0000ms, 13386ms total)
T2594 13951:109 JLINK_GetHardwareVersion()  returns 0x13880 (0000ms, 13386ms total)
T2594 13951:112 JLINK_TIF_Select(JLINKARM_TIF_SWD)  returns 0x00 (0003ms, 13389ms total)
T2594 13951:115 JLINK_SetSpeed(3000) (0001ms, 13390ms total)
T2594 13951:116 JLINK_GetId() >0x10B TIF>Found SW-DP with ID 0x1BA01477 >0x0D TIF> >0x28 TIF> >0x0D TIF> >0x28 TIF> >0x0D TIF> >0x28 TIF> >0x0D TIF> >0x28 TIF> >0x0D TIF> >0x21 TIF> >0x0D TIF> >0x28 TIF> >0x0D TIF> >0x28 TIF> >0x0D TIF> >0x28 TIF> >0x0D TIF> >0x21 TIF> >0x0D TIF> >0x21 TIF> >0x0D TIF> >0x28 TIF> >0x0D TIF> >0x21 TIF> >0x0D TIF> >0x21 TIF> >0x0D TIF> >0x28 TIF> >0x0D TIF> >0x21 TIF> >0x0D TIF> >0x21 TIF> >0x0D TIF> >0x28 TIF> >0x0D TIF> >0x21 TIF> >0x0D TIF> >0x21 TIF> >0x0D TIF>
 >0x28 TIF> >0x0D TIF> >0x21 TIF> >0x0D TIF> >0x21 TIF> >0x0D TIF> >0x28 TIF> >0x0D TIF> >0x21 TIF> >0x0D TIF> >0x21 TIF> >0x0D TIF> >0x28 TIF> >0x0D TIF> >0x21 TIF> >0x0D TIF> >0x21 TIF> >0x10B TIF>Found SW-DP with ID 0x1BA01477 >0x0D TIF> >0x28 TIF> >0x0D TIF> >0x28 TIF> >0x0D TIF> >0x28 TIF> >0x0D TIF> >0x28 TIF> >0x0D TIF> >0x21 TIF> >0x0D TIF> >0x28 TIF>Scanning AP map to find all available APs >0x0D TIF> >0x28 TIF> >0x0D TIF> >0x21 TIF> >0x0D TIF> >0x21 TIF> >0x0D TIF> >0x28 TIF> >0x0D TIF>
 >0x21 TIF> >0x0D TIF> >0x21 TIF>AP[1]: Stopped AP scan as end of AP map has been reachedAP[0]: AHB-AP (IDR: 0x14770011)Iterating through AP map to find AHB-AP to use >0x42 TIF> >0x28 TIF> >0x0D TIF> >0x28 TIF> >0x0D TIF> >0x21 TIF> >0x0D TIF> >0x21 TIF> >0x42 TIF> >0x28 TIF> >0x0D TIF> >0x28 TIF> >0x0D TIF> >0x28 TIF> >0x0D TIF> >0x21 TIF> >0x0D TIF> >0x21 TIF>AP[0]: Core foundAP[0]: AHB-AP ROM base: 0xE00FF000 >0x0D TIF> >0x28 TIF> >0x0D TIF> >0x28 TIF> >0x0D TIF> >0x28 TIF> >0x0D TIF> >0x21 TIF>
 >0x0D TIF> >0x21 TIF>CPUID register: 0x411FC231. Implementer code: 0x41 (ARM)Found Cortex-M3 r1p1, Little endian. -- Max. mem block: 0x00002408 -- CPU_ReadMem(4 bytes @ 0xE000EDF0) -- CPU_WriteMem(4 bytes @ 0xE000EDF0) -- CPU_ReadMem(4 bytes @ 0xE0002000)FPUnit: 6 code (BP) slots and 2 literal slots -- CPU_ReadMem(4 bytes @ 0xE000EDFC) -- CPU_WriteMem(4 bytes @ 0xE000EDFC) -- CPU_ReadMem(4 bytes @ 0xE0001000) -- CPU_WriteMem(4 bytes @ 0xE0001000) -- CPU_ReadMem(4 bytes @ 0xE000ED88)
 -- CPU_WriteMem(4 bytes @ 0xE000ED88) -- CPU_ReadMem(4 bytes @ 0xE000ED88) -- CPU_WriteMem(4 bytes @ 0xE000ED88)CoreSight components:ROMTbl[0] @ E00FF000 -- CPU_ReadMem(16 bytes @ 0xE00FF000) -- CPU_ReadMem(16 bytes @ 0xE000EFF0) -- CPU_ReadMem(16 bytes @ 0xE000EFE0)ROMTbl[0][0]: E000E000, CID: B105E00D, PID: 001BB000 SCS -- CPU_ReadMem(16 bytes @ 0xE0001FF0) -- CPU_ReadMem(16 bytes @ 0xE0001FE0)ROMTbl[0][1]: E0001000, CID: B105E00D, PID: 001BB002 DWT -- CPU_ReadMem(16 bytes @ 0xE0002FF0)
 -- CPU_ReadMem(16 bytes @ 0xE0002FE0)ROMTbl[0][2]: E0002000, CID: B105E00D, PID: 000BB003 FPB -- CPU_ReadMem(16 bytes @ 0xE0000FF0) -- CPU_ReadMem(16 bytes @ 0xE0000FE0)ROMTbl[0][3]: E0000000, CID: B105E00D, PID: 001BB001 ITM -- CPU_ReadMem(16 bytes @ 0xE00FF010) -- CPU_ReadMem(16 bytes @ 0xE0040FF0) -- CPU_ReadMem(16 bytes @ 0xE0040FE0)ROMTbl[0][4]: E0040000, CID: B105900D, PID: 001BB923 TPIU-Lite >0x0D TIF> >0x21 TIF>  returns 0x1BA01477 (0214ms, 13604ms total)
T2594 13951:330 JLINK_GetDLLVersion()  returns 64802 (0000ms, 13604ms total)
T2594 13951:330 JLINK_CORE_GetFound()  returns 0x30000FF (0000ms, 13604ms total)
T2594 13951:330 JLINK_GetDebugInfo(0x100 = JLINKARM_ROM_TABLE_ADDR_INDEX) -- Value=0xE00FF000  returns 0x00 (0000ms, 13604ms total)
T2594 13951:330 JLINK_GetDebugInfo(0x100 = JLINKARM_ROM_TABLE_ADDR_INDEX) -- Value=0xE00FF000  returns 0x00 (0000ms, 13604ms total)
T2594 13951:330 JLINK_GetDebugInfo(0x101 = JLINKARM_DEBUG_INFO_ETM_ADDR_INDEX) -- Value=0x00000000  returns 0x00 (0000ms, 13604ms total)
T2594 13951:330 JLINK_ReadMemEx(0xE0041FF0, 0x0010 Bytes, ..., Flags = 0x02000004) -- CPU_ReadMem(16 bytes @ 0xE0041FF0) - Data: 00 00 00 00 00 00 00 00 00 00 00 00 00 00 00 00  returns 0x10 (0002ms, 13606ms total)
T2594 13951:332 JLINK_GetDebugInfo(0x102 = JLINKARM_DEBUG_INFO_MTB_ADDR_INDEX) -- Value=0x00000000  returns 0x00 (0000ms, 13606ms total)
T2594 13951:332 JLINK_GetDebugInfo(0x103 = JLINKARM_DEBUG_INFO_TPIU_ADDR_INDEX) -- Value=0xE0040000  returns 0x00 (0000ms, 13606ms total)
T2594 13951:332 JLINK_GetDebugInfo(0x104 = JLINKARM_DEBUG_INFO_ITM_ADDR_INDEX) -- Value=0xE0000000  returns 0x00 (0000ms, 13606ms total)
T2594 13951:332 JLINK_GetDebugInfo(0x105 = JLINKARM_DEBUG_INFO_DWT_ADDR_INDEX) -- Value=0xE0001000  returns 0x00 (0000ms, 13606ms total)
T2594 13951:332 JLINK_GetDebugInfo(0x106 = JLINKARM_DEBUG_INFO_FPB_ADDR_INDEX) -- Value=0xE0002000  returns 0x00 (0000ms, 13606ms total)
T2594 13951:332 JLINK_GetDebugInfo(0x107 = JLINKARM_DEBUG_INFO_NVIC_ADDR_INDEX) -- Value=0xE000E000  returns 0x00 (0000ms, 13606ms total)
T2594 13951:332 JLINK_GetDebugInfo(0x10C = JLINKARM_DEBUG_INFO_DBG_ADDR_INDEX) -- Value=0xE000EDF0  returns 0x00 (0000ms, 13606ms total)
T2594 13951:332 JLINK_GetDebugInfo(0x01 = Unknown) -- Value=0x00000000  returns 0x00 (0000ms, 13606ms total)
T2594 13951:332 JLINK_ReadMemU32(0xE000ED00, 0x0001 Items, ...) -- CPU_ReadMem(4 bytes @ 0xE000ED00) - Data: 31 C2 1F 41  returns 1 (0000ms, 13606ms total)
T2594 13951:332 JLINK_GetDebugInfo(0x10F = JLINKARM_DEBUG_INFO_HAS_CORTEX_M_SECURITY_EXT_INDEX) -- Value=0x00000000  returns 0x00 (0000ms, 13606ms total)
T2594 13951:332 JLINK_SetResetType(JLINKARM_CM3_RESET_TYPE_NORMAL)  returns JLINKARM_CM3_RESET_TYPE_NORMAL (0000ms, 13606ms total)
T2594 13951:332 JLINK_Reset() -- CPU is running -- CPU_WriteMem(4 bytes @ 0xE000EDF0) -- CPU is running -- CPU_WriteMem(4 bytes @ 0xE000EDFC)Reset: Halt core after reset via DEMCR.VC_CORERESET. >0x35 TIF>Reset: Reset device via AIRCR.SYSRESETREQ. -- CPU is running -- CPU_WriteMem(4 bytes @ 0xE000ED0C) >0x0D TIF> >0x28 TIF> -- CPU_ReadMem(4 bytes @ 0xE000EDF0) -- CPU_ReadMem(4 bytes @ 0xE000EDF0) -- CPU is running -- CPU_WriteMem(4 bytes @ 0xE000EDF0) -- CPU is running
 -- CPU_WriteMem(4 bytes @ 0xE000EDFC) -- CPU_ReadMem(4 bytes @ 0xE000EDF0) -- CPU_WriteMem(4 bytes @ 0xE0002000) -- CPU_ReadMem(4 bytes @ 0xE000EDFC) -- CPU_ReadMem(4 bytes @ 0xE0001000) (0084ms, 13690ms total)
T2594 13951:416 JLINK_Halt()  returns 0x00 (0000ms, 13690ms total)
T2594 13951:416 JLINK_ReadMemU32(0xE000EDF0, 0x0001 Items, ...) -- CPU_ReadMem(4 bytes @ 0xE000EDF0) - Data: 03 00 03 00  returns 1 (0002ms, 13692ms total)
T2594 13951:418 JLINK_WriteU32(0xE000EDF0, 0xA05F0003) -- CPU_WriteMem(4 bytes @ 0xE000EDF0)  returns 0 (0001ms, 13693ms total)
T2594 13951:419 JLINK_WriteU32(0xE000EDFC, 0x01000000) -- CPU_WriteMem(4 bytes @ 0xE000EDFC)  returns 0 (0002ms, 13695ms total)
T2594 13951:438 JLINK_GetHWStatus(...)  returns 0x00 (0001ms, 13696ms total)
T2594 13951:445 JLINK_GetNumBPUnits(Type = 0xFFFFFF00)  returns 0x06 (0000ms, 13696ms total)
T2594 13951:445 JLINK_GetNumBPUnits(Type = 0xF0)  returns 0x2000 (0000ms, 13696ms total)
T2594 13951:445 JLINK_GetNumWPUnits()  returns 0x04 (0000ms, 13696ms total)
T2594 13951:451 JLINK_GetSpeed()  returns 0x7D0 (0000ms, 13696ms total)
T2594 13951:454 JLINK_ReadMemU32(0xE000E004, 0x0001 Items, ...) -- CPU_ReadMem(4 bytes @ 0xE000E004) - Data: 01 00 00 00  returns 1 (0001ms, 13697ms total)
T2594 13951:455 JLINK_ReadMemU32(0xE000E004, 0x0001 Items, ...) -- CPU_ReadMem(4 bytes @ 0xE000E004) - Data: 01 00 00 00  returns 1 (0002ms, 13699ms total)
T2594 13951:457 JLINK_WriteMemEx(0xE0001000, 0x001C Bytes, ..., Flags = 0x02000004) - Data: 01 00 00 00 00 00 00 00 00 00 00 00 00 00 00 00 ... -- CPU_WriteMem(28 bytes @ 0xE0001000)  returns 0x1C (0002ms, 13701ms total)
T2594 13951:459 JLINK_Halt()  returns 0x00 (0000ms, 13701ms total)
T2594 13951:459 JLINK_IsHalted()  returns TRUE (0000ms, 13701ms total)
T2594 13951:460 JLINK_WriteMem(0x20000000, 0x0164 Bytes, ...) - Data: 00 BE 0A E0 0D 78 2D 06 68 40 08 24 40 00 00 D3 ... -- CPU_WriteMem(356 bytes @ 0x20000000)  returns 0x164 (0005ms, 13706ms total)
T2594 13951:465 JLINK_WriteReg(R0, 0x08000000)  returns 0x00 (0000ms, 13706ms total)
T2594 13951:465 JLINK_WriteReg(R1, 0x00B71B00)  returns 0x00 (0000ms, 13706ms total)
T2594 13951:465 JLINK_WriteReg(R2, 0x00000001)  returns 0x00 (0000ms, 13706ms total)
T2594 13951:465 JLINK_WriteReg(R3, 0x00000000)  returns 0x00 (0000ms, 13706ms total)
T2594 13951:465 JLINK_WriteReg(R4, 0x00000000)  returns 0x00 (0000ms, 13706ms total)
T2594 13951:465 JLINK_WriteReg(R5, 0x00000000)  returns 0x00 (0000ms, 13706ms total)
T2594 13951:465 JLINK_WriteReg(R6, 0x00000000)  returns 0x00 (0000ms, 13706ms total)
T2594 13951:465 JLINK_WriteReg(R7, 0x00000000)  returns 0x00 (0000ms, 13706ms total)
T2594 13951:465 JLINK_WriteReg(R8, 0x00000000)  returns 0x00 (0000ms, 13706ms total)
T2594 13951:465 JLINK_WriteReg(R9, 0x20000160)  returns 0x00 (0001ms, 13707ms total)
T2594 13951:467 JLINK_WriteReg(R10, 0x00000000)  returns 0x00 (0000ms, 13707ms total)
T2594 13951:467 JLINK_WriteReg(R11, 0x00000000)  returns 0x00 (0000ms, 13707ms total)
T2594 13951:467 JLINK_WriteReg(R12, 0x00000000)  returns 0x00 (0000ms, 13707ms total)
T2594 13951:467 JLINK_WriteReg(R13 (SP), 0x20001000)  returns 0x00 (0000ms, 13707ms total)
T2594 13951:467 JLINK_WriteReg(R14, 0x20000001)  returns 0x00 (0000ms, 13707ms total)
T2594 13951:467 JLINK_WriteReg(R15 (PC), 0x20000038)  returns 0x00 (0000ms, 13707ms total)
T2594 13951:467 JLINK_WriteReg(XPSR, 0x01000000)  returns 0x00 (0000ms, 13707ms total)
T2594 13951:467 JLINK_WriteReg(MSP, 0x20001000)  returns 0x00 (0000ms, 13707ms total)
T2594 13951:467 JLINK_WriteReg(PSP, 0x20001000)  returns 0x00 (0000ms, 13707ms total)
T2594 13951:467 JLINK_WriteReg(CFBP, 0x00000000)  returns 0x00 (0000ms, 13707ms total)
T2594 13951:467 JLINK_SetBPEx(Addr = 0x20000000, Type = 0xFFFFFFF2) -- CPU_ReadMem(2 bytes @ 0x20000000)  returns 0x00000001 (0001ms, 13708ms total)
T2594 13951:468 JLINK_Go() -- CPU_WriteMem(2 bytes @ 0x20000000) -- CPU_ReadMem(4 bytes @ 0xE0001000) -- CPU_WriteMem(4 bytes @ 0xE0002008) -- CPU_WriteMem(4 bytes @ 0xE000200C) -- CPU_WriteMem(4 bytes @ 0xE0002010) -- CPU_WriteMem(4 bytes @ 0xE0002014) -- CPU_WriteMem(4 bytes @ 0xE0002018) -- CPU_WriteMem(4 bytes @ 0xE000201C) -- CPU_WriteMem(4 bytes @ 0xE0001004) (0011ms, 13719ms total)
T2594 13951:479 JLINK_IsHalted() -- CPU_ReadMem(2 bytes @ 0x20000000)  returns TRUE (0006ms, 13725ms total)
T2594 13951:485 JLINK_ReadReg(R15 (PC))  returns 0x20000000 (0000ms, 13719ms total)
T2594 13951:485 JLINK_ClrBPEx(BPHandle = 0x00000001)  returns 0x00 (0000ms, 13719ms total)
T2594 13951:485 JLINK_ReadReg(R0)  returns 0x00000000 (0000ms, 13719ms total)
T2594 13951:485 JLINK_WriteReg(R0, 0x08000000)  returns 0x00 (0000ms, 13719ms total)
T2594 13951:485 JLINK_WriteReg(R1, 0x00B71B00)  returns 0x00 (0000ms, 13719ms total)
T2594 13951:485 JLINK_WriteReg(R2, 0x00000001)  returns 0x00 (0000ms, 13719ms total)
T2594 13951:485 JLINK_WriteReg(R3, 0x00000000)  returns 0x00 (0000ms, 13719ms total)
T2594 13951:485 JLINK_WriteReg(R4, 0x00000000)  returns 0x00 (0000ms, 13719ms total)
T2594 13951:485 JLINK_WriteReg(R5, 0x00000000)  returns 0x00 (0000ms, 13719ms total)
T2594 13951:485 JLINK_WriteReg(R6, 0x00000000)  returns 0x00 (0000ms, 13719ms total)
T2594 13951:485 JLINK_WriteReg(R7, 0x00000000)  returns 0x00 (0000ms, 13719ms total)
T2594 13951:485 JLINK_WriteReg(R8, 0x00000000)  returns 0x00 (0000ms, 13719ms total)
T2594 13951:485 JLINK_WriteReg(R9, 0x20000160)  returns 0x00 (0000ms, 13719ms total)
T2594 13951:485 JLINK_WriteReg(R10, 0x00000000)  returns 0x00 (0000ms, 13719ms total)
T2594 13951:485 JLINK_WriteReg(R11, 0x00000000)  returns 0x00 (0000ms, 13719ms total)
T2594 13951:485 JLINK_WriteReg(R12, 0x00000000)  returns 0x00 (0000ms, 13719ms total)
T2594 13951:485 JLINK_WriteReg(R13 (SP), 0x20001000)  returns 0x00 (0000ms, 13719ms total)
T2594 13951:485 JLINK_WriteReg(R14, 0x20000001)  returns 0x00 (0000ms, 13719ms total)
T2594 13951:485 JLINK_WriteReg(R15 (PC), 0x2000007C)  returns 0x00 (0000ms, 13719ms total)
T2594 13951:485 JLINK_WriteReg(XPSR, 0x01000000)  returns 0x00 (0000ms, 13719ms total)
T2594 13951:485 JLINK_WriteReg(MSP, 0x20001000)  returns 0x00 (0000ms, 13719ms total)
T2594 13951:485 JLINK_WriteReg(PSP, 0x20001000)  returns 0x00 (0000ms, 13719ms total)
T2594 13951:485 JLINK_WriteReg(CFBP, 0x00000000)  returns 0x00 (0000ms, 13719ms total)
T2594 13951:485 JLINK_SetBPEx(Addr = 0x20000000, Type = 0xFFFFFFF2)  returns 0x00000002 (0000ms, 13719ms total)
T2594 13951:485 JLINK_Go() -- CPU_ReadMem(4 bytes @ 0xE0001000) (0006ms, 13725ms total)
T2594 13951:491 JLINK_IsHalted()  returns FALSE (0002ms, 13727ms total)
T2594 13951:521 JLINK_IsHalted() -- CPU_ReadMem(2 bytes @ 0x20000000)  returns TRUE (0005ms, 13730ms total)
T2594 13951:526 JLINK_ReadReg(R15 (PC))  returns 0x20000000 (0000ms, 13725ms total)
T2594 13951:526 JLINK_ClrBPEx(BPHandle = 0x00000002)  returns 0x00 (0000ms, 13725ms total)
T2594 13951:526 JLINK_ReadReg(R0)  returns 0x00000000 (0000ms, 13725ms total)
T2594 13951:579 JLINK_WriteReg(R0, 0x00000001)  returns 0x00 (0000ms, 13725ms total)
T2594 13951:579 JLINK_WriteReg(R1, 0x00B71B00)  returns 0x00 (0000ms, 13725ms total)
T2594 13951:579 JLINK_WriteReg(R2, 0x00000001)  returns 0x00 (0000ms, 13725ms total)
T2594 13951:579 JLINK_WriteReg(R3, 0x00000000)  returns 0x00 (0000ms, 13725ms total)
T2594 13951:579 JLINK_WriteReg(R4, 0x00000000)  returns 0x00 (0000ms, 13725ms total)
T2594 13951:579 JLINK_WriteReg(R5, 0x00000000)  returns 0x00 (0000ms, 13725ms total)
T2594 13951:579 JLINK_WriteReg(R6, 0x00000000)  returns 0x00 (0000ms, 13725ms total)
T2594 13951:579 JLINK_WriteReg(R7, 0x00000000)  returns 0x00 (0000ms, 13725ms total)
T2594 13951:579 JLINK_WriteReg(R8, 0x00000000)  returns 0x00 (0000ms, 13725ms total)
T2594 13951:579 JLINK_WriteReg(R9, 0x20000160)  returns 0x00 (0000ms, 13725ms total)
T2594 13951:579 JLINK_WriteReg(R10, 0x00000000)  returns 0x00 (0000ms, 13725ms total)
T2594 13951:579 JLINK_WriteReg(R11, 0x00000000)  returns 0x00 (0000ms, 13725ms total)
T2594 13951:579 JLINK_WriteReg(R12, 0x00000000)  returns 0x00 (0000ms, 13725ms total)
T2594 13951:579 JLINK_WriteReg(R13 (SP), 0x20001000)  returns 0x00 (0000ms, 13725ms total)
T2594 13951:579 JLINK_WriteReg(R14, 0x20000001)  returns 0x00 (0000ms, 13725ms total)
T2594 13951:579 JLINK_WriteReg(R15 (PC), 0x2000006A)  returns 0x00 (0000ms, 13725ms total)
T2594 13951:579 JLINK_WriteReg(XPSR, 0x01000000)  returns 0x00 (0000ms, 13725ms total)
T2594 13951:579 JLINK_WriteReg(MSP, 0x20001000)  returns 0x00 (0000ms, 13725ms total)
T2594 13951:579 JLINK_WriteReg(PSP, 0x20001000)  returns 0x00 (0000ms, 13725ms total)
T2594 13951:579 JLINK_WriteReg(CFBP, 0x00000000)  returns 0x00 (0000ms, 13725ms total)
T2594 13951:579 JLINK_SetBPEx(Addr = 0x20000000, Type = 0xFFFFFFF2)  returns 0x00000003 (0000ms, 13725ms total)
T2594 13951:579 JLINK_Go() -- CPU_ReadMem(4 bytes @ 0xE0001000) (0006ms, 13731ms total)
T2594 13951:585 JLINK_IsHalted() -- CPU_ReadMem(2 bytes @ 0x20000000)  returns TRUE (0006ms, 13737ms total)
T2594 13951:591 JLINK_ReadReg(R15 (PC))  returns 0x20000000 (0000ms, 13731ms total)
T2594 13951:591 JLINK_ClrBPEx(BPHandle = 0x00000003)  returns 0x00 (0000ms, 13731ms total)
T2594 13951:591 JLINK_ReadReg(R0)  returns 0x00000000 (0000ms, 13731ms total)
T2594 13951:599 JLINK_WriteMem(0x20000000, 0x0164 Bytes, ...) - Data: 00 BE 0A E0 0D 78 2D 06 68 40 08 24 40 00 00 D3 ... -- CPU_WriteMem(356 bytes @ 0x20000000)  returns 0x164 (0006ms, 13737ms total)
T2594 13951:605 JLINK_WriteReg(R0, 0x08000000)  returns 0x00 (0000ms, 13737ms total)
T2594 13951:605 JLINK_WriteReg(R1, 0x00B71B00)  returns 0x00 (0000ms, 13737ms total)
T2594 13951:605 JLINK_WriteReg(R2, 0x00000002)  returns 0x00 (0000ms, 13737ms total)
T2594 13951:605 JLINK_WriteReg(R3, 0x00000000)  returns 0x00 (0000ms, 13737ms total)
T2594 13951:605 JLINK_WriteReg(R4, 0x00000000)  returns 0x00 (0000ms, 13737ms total)
T2594 13951:605 JLINK_WriteReg(R5, 0x00000000)  returns 0x00 (0000ms, 13737ms total)
T2594 13951:605 JLINK_WriteReg(R6, 0x00000000)  returns 0x00 (0000ms, 13737ms total)
T2594 13951:605 JLINK_WriteReg(R7, 0x00000000)  returns 0x00 (0000ms, 13737ms total)
T2594 13951:605 JLINK_WriteReg(R8, 0x00000000)  returns 0x00 (0000ms, 13737ms total)
T2594 13951:605 JLINK_WriteReg(R9, 0x20000160)  returns 0x00 (0000ms, 13737ms total)
T2594 13951:606 JLINK_WriteReg(R10, 0x00000000)  returns 0x00 (0000ms, 13738ms total)
T2594 13951:606 JLINK_WriteReg(R11, 0x00000000)  returns 0x00 (0000ms, 13738ms total)
T2594 13951:606 JLINK_WriteReg(R12, 0x00000000)  returns 0x00 (0000ms, 13738ms total)
T2594 13951:606 JLINK_WriteReg(R13 (SP), 0x20001000)  returns 0x00 (0000ms, 13738ms total)
T2594 13951:606 JLINK_WriteReg(R14, 0x20000001)  returns 0x00 (0000ms, 13738ms total)
T2594 13951:606 JLINK_WriteReg(R15 (PC), 0x20000038)  returns 0x00 (0000ms, 13738ms total)
T2594 13951:606 JLINK_WriteReg(XPSR, 0x01000000)  returns 0x00 (0000ms, 13738ms total)
T2594 13951:606 JLINK_WriteReg(MSP, 0x20001000)  returns 0x00 (0000ms, 13738ms total)
T2594 13951:606 JLINK_WriteReg(PSP, 0x20001000)  returns 0x00 (0000ms, 13738ms total)
T2594 13951:606 JLINK_WriteReg(CFBP, 0x00000000)  returns 0x00 (0000ms, 13738ms total)
T2594 13951:606 JLINK_SetBPEx(Addr = 0x20000000, Type = 0xFFFFFFF2) -- CPU_ReadMem(2 bytes @ 0x20000000)  returns 0x00000004 (0001ms, 13739ms total)
T2594 13951:607 JLINK_Go() -- CPU_WriteMem(2 bytes @ 0x20000000) -- CPU_ReadMem(4 bytes @ 0xE0001000) (0007ms, 13746ms total)
T2594 13951:614 JLINK_IsHalted() -- CPU_ReadMem(2 bytes @ 0x20000000)  returns TRUE (0006ms, 13752ms total)
T2594 13951:620 JLINK_ReadReg(R15 (PC))  returns 0x20000000 (0000ms, 13746ms total)
T2594 13951:620 JLINK_ClrBPEx(BPHandle = 0x00000004)  returns 0x00 (0000ms, 13746ms total)
T2594 13951:620 JLINK_ReadReg(R0)  returns 0x00000000 (0000ms, 13746ms total)
T2594 13951:621 JLINK_WriteMem(0x20000164, 0x029C Bytes, ...) - Data: 60 31 00 20 01 01 00 08 BF 14 00 08 35 14 00 08 ... -- CPU_WriteMem(668 bytes @ 0x20000164)  returns 0x29C (0008ms, 13754ms total)
T2594 13951:629 JLINK_WriteMem(0x20000400, 0x0164 Bytes, ...) - Data: 40 1A 10 BD 30 B5 04 46 00 20 03 46 00 E0 5B 1C ... -- CPU_WriteMem(356 bytes @ 0x20000400)  returns 0x164 (0005ms, 13759ms total)
T2594 13951:634 JLINK_WriteReg(R0, 0x08000000)  returns 0x00 (0000ms, 13759ms total)
T2594 13951:634 JLINK_WriteReg(R1, 0x00000400)  returns 0x00 (0000ms, 13759ms total)
T2594 13951:634 JLINK_WriteReg(R2, 0x20000164)  returns 0x00 (0000ms, 13759ms total)
T2594 13951:634 JLINK_WriteReg(R3, 0x00000000)  returns 0x00 (0000ms, 13759ms total)
T2594 13951:634 JLINK_WriteReg(R4, 0x00000000)  returns 0x00 (0000ms, 13759ms total)
T2594 13951:634 JLINK_WriteReg(R5, 0x00000000)  returns 0x00 (0001ms, 13760ms total)
T2594 13951:635 JLINK_WriteReg(R6, 0x00000000)  returns 0x00 (0000ms, 13760ms total)
T2594 13951:635 JLINK_WriteReg(R7, 0x00000000)  returns 0x00 (0000ms, 13760ms total)
T2594 13951:635 JLINK_WriteReg(R8, 0x00000000)  returns 0x00 (0000ms, 13760ms total)
T2594 13951:635 JLINK_WriteReg(R9, 0x20000160)  returns 0x00 (0000ms, 13760ms total)
T2594 13951:635 JLINK_WriteReg(R10, 0x00000000)  returns 0x00 (0000ms, 13760ms total)
T2594 13951:635 JLINK_WriteReg(R11, 0x00000000)  returns 0x00 (0000ms, 13760ms total)
T2594 13951:635 JLINK_WriteReg(R12, 0x00000000)  returns 0x00 (0000ms, 13760ms total)
T2594 13951:635 JLINK_WriteReg(R13 (SP), 0x20001000)  returns 0x00 (0000ms, 13760ms total)
T2594 13951:635 JLINK_WriteReg(R14, 0x20000001)  returns 0x00 (0000ms, 13760ms total)
T2594 13951:635 JLINK_WriteReg(R15 (PC), 0x200000F4)  returns 0x00 (0000ms, 13760ms total)
T2594 13951:635 JLINK_WriteReg(XPSR, 0x01000000)  returns 0x00 (0000ms, 13760ms total)
T2594 13951:635 JLINK_WriteReg(MSP, 0x20001000)  returns 0x00 (0000ms, 13760ms total)
T2594 13951:635 JLINK_WriteReg(PSP, 0x20001000)  returns 0x00 (0000ms, 13760ms total)
T2594 13951:635 JLINK_WriteReg(CFBP, 0x00000000)  returns 0x00 (0000ms, 13760ms total)
T2594 13951:635 JLINK_SetBPEx(Addr = 0x20000000, Type = 0xFFFFFFF2)  returns 0x00000005 (0000ms, 13760ms total)
T2594 13951:635 JLINK_Go() -- CPU_ReadMem(4 bytes @ 0xE0001000) (0006ms, 13766ms total)
T2594 13951:641 JLINK_IsHalted()  returns FALSE (0001ms, 13767ms total)
T2594 13951:654 JLINK_IsHalted()  returns FALSE (0001ms, 13767ms total)
T2594 13951:658 JLINK_IsHalted()  returns FALSE (0000ms, 13766ms total)
T2594 13951:661 JLINK_IsHalted()  returns FALSE (0000ms, 13766ms total)
T2594 13951:663 JLINK_IsHalted()  returns FALSE (0002ms, 13768ms total)
T2594 13951:666 JLINK_IsHalted()  returns FALSE (0001ms, 13767ms total)
T2594 13951:670 JLINK_IsHalted()  returns FALSE (0000ms, 13766ms total)
T2594 13951:673 JLINK_IsHalted() -- CPU_ReadMem(2 bytes @ 0x20000000)  returns TRUE (0006ms, 13772ms total)
T2594 13951:679 JLINK_ReadReg(R15 (PC))  returns 0x20000000 (0000ms, 13766ms total)
T2594 13951:679 JLINK_ClrBPEx(BPHandle = 0x00000005)  returns 0x00 (0000ms, 13766ms total)
T2594 13951:679 JLINK_ReadReg(R0)  returns 0x00000000 (0000ms, 13766ms total)
T2594 13951:681 JLINK_WriteMem(0x20000164, 0x029C Bytes, ...) - Data: 02 D4 6F F0 01 00 A8 E7 E0 07 25 D1 60 06 13 D5 ... -- CPU_WriteMem(668 bytes @ 0x20000164)  returns 0x29C (0008ms, 13774ms total)
T2594 13951:689 JLINK_WriteMem(0x20000400, 0x0164 Bytes, ...) - Data: 12 F8 01 0F 08 B1 02 25 00 E0 04 25 02 CC 28 46 ... -- CPU_WriteMem(356 bytes @ 0x20000400)  returns 0x164 (0005ms, 13779ms total)
T2594 13951:694 JLINK_WriteReg(R0, 0x08000400)  returns 0x00 (0000ms, 13779ms total)
T2594 13951:694 JLINK_WriteReg(R1, 0x00000400)  returns 0x00 (0000ms, 13779ms total)
T2594 13951:694 JLINK_WriteReg(R2, 0x20000164)  returns 0x00 (0000ms, 13779ms total)
T2594 13951:694 JLINK_WriteReg(R3, 0x00000000)  returns 0x00 (0000ms, 13779ms total)
T2594 13951:694 JLINK_WriteReg(R4, 0x00000000)  returns 0x00 (0000ms, 13779ms total)
T2594 13951:694 JLINK_WriteReg(R5, 0x00000000)  returns 0x00 (0000ms, 13779ms total)
T2594 13951:694 JLINK_WriteReg(R6, 0x00000000)  returns 0x00 (0000ms, 13779ms total)
T2594 13951:694 JLINK_WriteReg(R7, 0x00000000)  returns 0x00 (0000ms, 13779ms total)
T2594 13951:694 JLINK_WriteReg(R8, 0x00000000)  returns 0x00 (0000ms, 13779ms total)
T2594 13951:694 JLINK_WriteReg(R9, 0x20000160)  returns 0x00 (0000ms, 13779ms total)
T2594 13951:694 JLINK_WriteReg(R10, 0x00000000)  returns 0x00 (0000ms, 13779ms total)
T2594 13951:694 JLINK_WriteReg(R11, 0x00000000)  returns 0x00 (0000ms, 13779ms total)
T2594 13951:694 JLINK_WriteReg(R12, 0x00000000)  returns 0x00 (0000ms, 13779ms total)
T2594 13951:694 JLINK_WriteReg(R13 (SP), 0x20001000)  returns 0x00 (0000ms, 13779ms total)
T2594 13951:694 JLINK_WriteReg(R14, 0x20000001)  returns 0x00 (0000ms, 13779ms total)
T2594 13951:694 JLINK_WriteReg(R15 (PC), 0x200000F4)  returns 0x00 (0000ms, 13779ms total)
T2594 13951:694 JLINK_WriteReg(XPSR, 0x01000000)  returns 0x00 (0000ms, 13779ms total)
T2594 13951:694 JLINK_WriteReg(MSP, 0x20001000)  returns 0x00 (0000ms, 13779ms total)
T2594 13951:694 JLINK_WriteReg(PSP, 0x20001000)  returns 0x00 (0001ms, 13780ms total)
T2594 13951:695 JLINK_WriteReg(CFBP, 0x00000000)  returns 0x00 (0000ms, 13780ms total)
T2594 13951:695 JLINK_SetBPEx(Addr = 0x20000000, Type = 0xFFFFFFF2)  returns 0x00000006 (0000ms, 13780ms total)
T2594 13951:695 JLINK_Go() -- CPU_ReadMem(4 bytes @ 0xE0001000) (0006ms, 13786ms total)
T2594 13951:702 JLINK_IsHalted()  returns FALSE (0001ms, 13787ms total)
T2594 13951:705 JLINK_IsHalted()  returns FALSE (0000ms, 13786ms total)
T2594 13951:711 JLINK_IsHalted()  returns FALSE (0001ms, 13788ms total)
T2594 13951:714 JLINK_IsHalted()  returns FALSE (0001ms, 13788ms total)
T2594 13951:717 JLINK_IsHalted()  returns FALSE (0002ms, 13789ms total)
T2594 13951:721 JLINK_IsHalted()  returns FALSE (0001ms, 13788ms total)
T2594 13951:724 JLINK_IsHalted()  returns FALSE (0001ms, 13788ms total)
T2594 13951:727 JLINK_IsHalted()  returns FALSE (0002ms, 13789ms total)
T2594 13951:731 JLINK_IsHalted() -- CPU_ReadMem(2 bytes @ 0x20000000)  returns TRUE (0007ms, 13796ms total)
T2594 13951:738 JLINK_ReadReg(R15 (PC))  returns 0x20000000 (0000ms, 13789ms total)
T2594 13951:738 JLINK_ClrBPEx(BPHandle = 0x00000006)  returns 0x00 (0000ms, 13789ms total)
T2594 13951:738 JLINK_ReadReg(R0)  returns 0x00000000 (0000ms, 13789ms total)
T2594 13951:739 JLINK_WriteMem(0x20000164, 0x029C Bytes, ...) - Data: C2 F1 20 03 20 FA 03 F3 19 43 90 40 70 47 70 B5 ... -- CPU_WriteMem(668 bytes @ 0x20000164)  returns 0x29C (0008ms, 13797ms total)
T2594 13951:747 JLINK_WriteMem(0x20000400, 0x0164 Bytes, ...) - Data: 05 F0 B8 FC 9D F8 13 60 BD F8 0E 50 80 B2 9D F8 ... -- CPU_WriteMem(356 bytes @ 0x20000400)  returns 0x164 (0005ms, 13802ms total)
T2594 13951:752 JLINK_WriteReg(R0, 0x08000800)  returns 0x00 (0000ms, 13802ms total)
T2594 13951:752 JLINK_WriteReg(R1, 0x00000400)  returns 0x00 (0000ms, 13802ms total)
T2594 13951:752 JLINK_WriteReg(R2, 0x20000164)  returns 0x00 (0000ms, 13802ms total)
T2594 13951:752 JLINK_WriteReg(R3, 0x00000000)  returns 0x00 (0000ms, 13802ms total)
T2594 13951:752 JLINK_WriteReg(R4, 0x00000000)  returns 0x00 (0000ms, 13802ms total)
T2594 13951:752 JLINK_WriteReg(R5, 0x00000000)  returns 0x00 (0000ms, 13802ms total)
T2594 13951:752 JLINK_WriteReg(R6, 0x00000000)  returns 0x00 (0000ms, 13802ms total)
T2594 13951:752 JLINK_WriteReg(R7, 0x00000000)  returns 0x00 (0000ms, 13802ms total)
T2594 13951:752 JLINK_WriteReg(R8, 0x00000000)  returns 0x00 (0000ms, 13802ms total)
T2594 13951:752 JLINK_WriteReg(R9, 0x20000160)  returns 0x00 (0001ms, 13803ms total)
T2594 13951:753 JLINK_WriteReg(R10, 0x00000000)  returns 0x00 (0000ms, 13803ms total)
T2594 13951:753 JLINK_WriteReg(R11, 0x00000000)  returns 0x00 (0000ms, 13803ms total)
T2594 13951:753 JLINK_WriteReg(R12, 0x00000000)  returns 0x00 (0000ms, 13803ms total)
T2594 13951:753 JLINK_WriteReg(R13 (SP), 0x20001000)  returns 0x00 (0000ms, 13803ms total)
T2594 13951:753 JLINK_WriteReg(R14, 0x20000001)  returns 0x00 (0000ms, 13803ms total)
T2594 13951:753 JLINK_WriteReg(R15 (PC), 0x200000F4)  returns 0x00 (0000ms, 13803ms total)
T2594 13951:753 JLINK_WriteReg(XPSR, 0x01000000)  returns 0x00 (0000ms, 13803ms total)
T2594 13951:753 JLINK_WriteReg(MSP, 0x20001000)  returns 0x00 (0000ms, 13803ms total)
T2594 13951:753 JLINK_WriteReg(PSP, 0x20001000)  returns 0x00 (0000ms, 13803ms total)
T2594 13951:753 JLINK_WriteReg(CFBP, 0x00000000)  returns 0x00 (0000ms, 13803ms total)
T2594 13951:753 JLINK_SetBPEx(Addr = 0x20000000, Type = 0xFFFFFFF2)  returns 0x00000007 (0001ms, 13804ms total)
T2594 13951:754 JLINK_Go() -- CPU_ReadMem(4 bytes @ 0xE0001000) (0006ms, 13810ms total)
T2594 13951:760 JLINK_IsHalted()  returns FALSE (0001ms, 13811ms total)
T2594 13951:768 JLINK_IsHalted()  returns FALSE (0001ms, 13811ms total)
T2594 13951:771 JLINK_IsHalted()  returns FALSE (0001ms, 13811ms total)
T2594 13951:774 JLINK_IsHalted()  returns FALSE (0002ms, 13812ms total)
T2594 13951:778 JLINK_IsHalted()  returns FALSE (0001ms, 13811ms total)
T2594 13951:781 JLINK_IsHalted()  returns FALSE (0001ms, 13811ms total)
T2594 13951:784 JLINK_IsHalted()  returns FALSE (0001ms, 13811ms total)
T2594 13951:794 JLINK_IsHalted() -- CPU_ReadMem(2 bytes @ 0x20000000)  returns TRUE (0006ms, 13816ms total)
T2594 13951:800 JLINK_ReadReg(R15 (PC))  returns 0x20000000 (0000ms, 13810ms total)
T2594 13951:800 JLINK_ClrBPEx(BPHandle = 0x00000007)  returns 0x00 (0000ms, 13810ms total)
T2594 13951:800 JLINK_ReadReg(R0)  returns 0x00000000 (0000ms, 13810ms total)
T2594 13951:801 JLINK_WriteMem(0x20000164, 0x029C Bytes, ...) - Data: 9D F8 1A 10 9D F8 1B 20 9D F8 1C 30 00 90 22 A0 ... -- CPU_WriteMem(668 bytes @ 0x20000164)  returns 0x29C (0009ms, 13819ms total)
T2594 13951:810 JLINK_WriteMem(0x20000400, 0x0164 Bytes, ...) - Data: 01 20 0D 46 FF F7 0E FF AB 28 04 BF AB 20 70 BD ... -- CPU_WriteMem(356 bytes @ 0x20000400)  returns 0x164 (0005ms, 13824ms total)
T2594 13951:815 JLINK_WriteReg(R0, 0x08000C00)  returns 0x00 (0000ms, 13824ms total)
T2594 13951:815 JLINK_WriteReg(R1, 0x00000400)  returns 0x00 (0000ms, 13824ms total)
T2594 13951:815 JLINK_WriteReg(R2, 0x20000164)  returns 0x00 (0000ms, 13824ms total)
T2594 13951:815 JLINK_WriteReg(R3, 0x00000000)  returns 0x00 (0000ms, 13824ms total)
T2594 13951:815 JLINK_WriteReg(R4, 0x00000000)  returns 0x00 (0000ms, 13824ms total)
T2594 13951:815 JLINK_WriteReg(R5, 0x00000000)  returns 0x00 (0000ms, 13824ms total)
T2594 13951:815 JLINK_WriteReg(R6, 0x00000000)  returns 0x00 (0000ms, 13824ms total)
T2594 13951:815 JLINK_WriteReg(R7, 0x00000000)  returns 0x00 (0000ms, 13824ms total)
T2594 13951:815 JLINK_WriteReg(R8, 0x00000000)  returns 0x00 (0000ms, 13824ms total)
T2594 13951:815 JLINK_WriteReg(R9, 0x20000160)  returns 0x00 (0000ms, 13824ms total)
T2594 13951:815 JLINK_WriteReg(R10, 0x00000000)  returns 0x00 (0000ms, 13824ms total)
T2594 13951:815 JLINK_WriteReg(R11, 0x00000000)  returns 0x00 (0000ms, 13824ms total)
T2594 13951:816 JLINK_WriteReg(R12, 0x00000000)  returns 0x00 (0000ms, 13824ms total)
T2594 13951:816 JLINK_WriteReg(R13 (SP), 0x20001000)  returns 0x00 (0000ms, 13824ms total)
T2594 13951:816 JLINK_WriteReg(R14, 0x20000001)  returns 0x00 (0000ms, 13824ms total)
T2594 13951:816 JLINK_WriteReg(R15 (PC), 0x200000F4)  returns 0x00 (0000ms, 13824ms total)
T2594 13951:816 JLINK_WriteReg(XPSR, 0x01000000)  returns 0x00 (0000ms, 13824ms total)
T2594 13951:816 JLINK_WriteReg(MSP, 0x20001000)  returns 0x00 (0000ms, 13824ms total)
T2594 13951:816 JLINK_WriteReg(PSP, 0x20001000)  returns 0x00 (0000ms, 13824ms total)
T2594 13951:816 JLINK_WriteReg(CFBP, 0x00000000)  returns 0x00 (0000ms, 13824ms total)
T2594 13951:816 JLINK_SetBPEx(Addr = 0x20000000, Type = 0xFFFFFFF2)  returns 0x00000008 (0000ms, 13824ms total)
T2594 13951:816 JLINK_Go() -- CPU_ReadMem(4 bytes @ 0xE0001000) (0006ms, 13830ms total)
T2594 13951:822 JLINK_IsHalted()  returns FALSE (0001ms, 13831ms total)
T2594 13951:833 JLINK_IsHalted()  returns FALSE (0000ms, 13830ms total)
T2594 13951:835 JLINK_IsHalted()  returns FALSE (0000ms, 13830ms total)
T2594 13951:837 JLINK_IsHalted()  returns FALSE (0001ms, 13831ms total)
T2594 13951:841 JLINK_IsHalted()  returns FALSE (0000ms, 13830ms total)
T2594 13951:844 JLINK_IsHalted()  returns FALSE (0001ms, 13831ms total)
T2594 13951:847 JLINK_IsHalted()  returns FALSE (0000ms, 13830ms total)
T2594 13951:850 JLINK_IsHalted()  returns FALSE (0000ms, 13830ms total)
T2594 13951:853 JLINK_IsHalted() -- CPU_ReadMem(2 bytes @ 0x20000000)  returns TRUE (0005ms, 13835ms total)
T2594 13951:858 JLINK_ReadReg(R15 (PC))  returns 0x20000000 (0000ms, 13830ms total)
T2594 13951:858 JLINK_ClrBPEx(BPHandle = 0x00000008)  returns 0x00 (0000ms, 13830ms total)
T2594 13951:858 JLINK_ReadReg(R0)  returns 0x00000000 (0000ms, 13830ms total)
T2594 13951:859 JLINK_WriteMem(0x20000164, 0x029C Bytes, ...) - Data: CC F8 00 20 02 68 8B 68 93 43 8B 60 CB 68 93 43 ... -- CPU_WriteMem(668 bytes @ 0x20000164)  returns 0x29C (0009ms, 13839ms total)
T2594 13951:868 JLINK_WriteMem(0x20000400, 0x0164 Bytes, ...) - Data: 90 43 20 60 45 EA 87 00 88 40 21 68 08 43 20 60 ... -- CPU_WriteMem(356 bytes @ 0x20000400)  returns 0x164 (0005ms, 13844ms total)
T2594 13951:873 JLINK_WriteReg(R0, 0x08001000)  returns 0x00 (0000ms, 13844ms total)
T2594 13951:873 JLINK_WriteReg(R1, 0x00000400)  returns 0x00 (0000ms, 13844ms total)
T2594 13951:873 JLINK_WriteReg(R2, 0x20000164)  returns 0x00 (0000ms, 13844ms total)
T2594 13951:873 JLINK_WriteReg(R3, 0x00000000)  returns 0x00 (0000ms, 13844ms total)
T2594 13951:873 JLINK_WriteReg(R4, 0x00000000)  returns 0x00 (0000ms, 13844ms total)
T2594 13951:873 JLINK_WriteReg(R5, 0x00000000)  returns 0x00 (0000ms, 13844ms total)
T2594 13951:873 JLINK_WriteReg(R6, 0x00000000)  returns 0x00 (0000ms, 13844ms total)
T2594 13951:873 JLINK_WriteReg(R7, 0x00000000)  returns 0x00 (0000ms, 13844ms total)
T2594 13951:873 JLINK_WriteReg(R8, 0x00000000)  returns 0x00 (0000ms, 13844ms total)
T2594 13951:873 JLINK_WriteReg(R9, 0x20000160)  returns 0x00 (0000ms, 13844ms total)
T2594 13951:873 JLINK_WriteReg(R10, 0x00000000)  returns 0x00 (0000ms, 13844ms total)
T2594 13951:873 JLINK_WriteReg(R11, 0x00000000)  returns 0x00 (0000ms, 13844ms total)
T2594 13951:873 JLINK_WriteReg(R12, 0x00000000)  returns 0x00 (0000ms, 13844ms total)
T2594 13951:873 JLINK_WriteReg(R13 (SP), 0x20001000)  returns 0x00 (0000ms, 13844ms total)
T2594 13951:873 JLINK_WriteReg(R14, 0x20000001)  returns 0x00 (0000ms, 13844ms total)
T2594 13951:873 JLINK_WriteReg(R15 (PC), 0x200000F4)  returns 0x00 (0000ms, 13844ms total)
T2594 13951:873 JLINK_WriteReg(XPSR, 0x01000000)  returns 0x00 (0000ms, 13844ms total)
T2594 13951:873 JLINK_WriteReg(MSP, 0x20001000)  returns 0x00 (0000ms, 13844ms total)
T2594 13951:873 JLINK_WriteReg(PSP, 0x20001000)  returns 0x00 (0000ms, 13844ms total)
T2594 13951:873 JLINK_WriteReg(CFBP, 0x00000000)  returns 0x00 (0000ms, 13844ms total)
T2594 13951:873 JLINK_SetBPEx(Addr = 0x20000000, Type = 0xFFFFFFF2)  returns 0x00000009 (0000ms, 13844ms total)
T2594 13951:873 JLINK_Go() -- CPU_ReadMem(4 bytes @ 0xE0001000) (0006ms, 13850ms total)
T2594 13951:880 JLINK_IsHalted()  returns FALSE (0000ms, 13850ms total)
T2594 13951:882 JLINK_IsHalted()  returns FALSE (0001ms, 13851ms total)
T2594 13951:885 JLINK_IsHalted()  returns FALSE (0001ms, 13851ms total)
T2594 13951:888 JLINK_IsHalted()  returns FALSE (0001ms, 13851ms total)
T2594 13951:891 JLINK_IsHalted()  returns FALSE (0001ms, 13851ms total)
T2594 13951:894 JLINK_IsHalted()  returns FALSE (0001ms, 13851ms total)
T2594 13951:897 JLINK_IsHalted()  returns FALSE (0001ms, 13851ms total)
T2594 13951:900 JLINK_IsHalted()  returns FALSE (0001ms, 13851ms total)
T2594 13951:903 JLINK_IsHalted()  returns FALSE (0002ms, 13852ms total)
T2594 13951:907 JLINK_IsHalted()  returns FALSE (0001ms, 13851ms total)
T2594 13951:910 JLINK_IsHalted() -- CPU_ReadMem(2 bytes @ 0x20000000)  returns TRUE (0006ms, 13856ms total)
T2594 13951:916 JLINK_ReadReg(R15 (PC))  returns 0x20000000 (0000ms, 13850ms total)
T2594 13951:916 JLINK_ClrBPEx(BPHandle = 0x00000009)  returns 0x00 (0000ms, 13850ms total)
T2594 13951:916 JLINK_ReadReg(R0)  returns 0x00000000 (0000ms, 13850ms total)
T2594 13951:917 JLINK_WriteMem(0x20000164, 0x029C Bytes, ...) - Data: 8D F8 0E 70 AD F8 0C 00 08 20 02 90 02 A8 FF F7 ... -- CPU_WriteMem(668 bytes @ 0x20000164)  returns 0x29C (0009ms, 13859ms total)
T2594 13951:927 JLINK_WriteMem(0x20000400, 0x0164 Bytes, ...) - Data: 01 23 00 F0 1F 02 C0 F3 42 10 03 FA 02 F2 41 F8 ... -- CPU_WriteMem(356 bytes @ 0x20000400)  returns 0x164 (0005ms, 13864ms total)
T2594 13951:932 JLINK_WriteReg(R0, 0x08001400)  returns 0x00 (0000ms, 13864ms total)
T2594 13951:932 JLINK_WriteReg(R1, 0x00000400)  returns 0x00 (0000ms, 13864ms total)
T2594 13951:932 JLINK_WriteReg(R2, 0x20000164)  returns 0x00 (0000ms, 13864ms total)
T2594 13951:932 JLINK_WriteReg(R3, 0x00000000)  returns 0x00 (0000ms, 13864ms total)
T2594 13951:932 JLINK_WriteReg(R4, 0x00000000)  returns 0x00 (0000ms, 13864ms total)
T2594 13951:932 JLINK_WriteReg(R5, 0x00000000)  returns 0x00 (0000ms, 13864ms total)
T2594 13951:932 JLINK_WriteReg(R6, 0x00000000)  returns 0x00 (0000ms, 13864ms total)
T2594 13951:932 JLINK_WriteReg(R7, 0x00000000)  returns 0x00 (0000ms, 13864ms total)
T2594 13951:932 JLINK_WriteReg(R8, 0x00000000)  returns 0x00 (0000ms, 13864ms total)
T2594 13951:932 JLINK_WriteReg(R9, 0x20000160)  returns 0x00 (0000ms, 13864ms total)
T2594 13951:932 JLINK_WriteReg(R10, 0x00000000)  returns 0x00 (0000ms, 13864ms total)
T2594 13951:932 JLINK_WriteReg(R11, 0x00000000)  returns 0x00 (0000ms, 13864ms total)
T2594 13951:932 JLINK_WriteReg(R12, 0x00000000)  returns 0x00 (0000ms, 13864ms total)
T2594 13951:933 JLINK_WriteReg(R13 (SP), 0x20001000)  returns 0x00 (0000ms, 13865ms total)
T2594 13951:933 JLINK_WriteReg(R14, 0x20000001)  returns 0x00 (0000ms, 13865ms total)
T2594 13951:933 JLINK_WriteReg(R15 (PC), 0x200000F4)  returns 0x00 (0000ms, 13865ms total)
T2594 13951:933 JLINK_WriteReg(XPSR, 0x01000000)  returns 0x00 (0000ms, 13865ms total)
T2594 13951:933 JLINK_WriteReg(MSP, 0x20001000)  returns 0x00 (0000ms, 13865ms total)
T2594 13951:933 JLINK_WriteReg(PSP, 0x20001000)  returns 0x00 (0000ms, 13865ms total)
T2594 13951:933 JLINK_WriteReg(CFBP, 0x00000000)  returns 0x00 (0000ms, 13865ms total)
T2594 13951:933 JLINK_SetBPEx(Addr = 0x20000000, Type = 0xFFFFFFF2)  returns 0x0000000A (0000ms, 13865ms total)
T2594 13951:933 JLINK_Go() -- CPU_ReadMem(4 bytes @ 0xE0001000) (0006ms, 13871ms total)
T2594 13951:939 JLINK_IsHalted()  returns FALSE (0001ms, 13872ms total)
T2594 13951:947 JLINK_IsHalted()  returns FALSE (0001ms, 13872ms total)
T2594 13951:950 JLINK_IsHalted()  returns FALSE (0001ms, 13872ms total)
T2594 13951:953 JLINK_IsHalted()  returns FALSE (0001ms, 13872ms total)
T2594 13951:956 JLINK_IsHalted()  returns FALSE (0001ms, 13872ms total)
T2594 13951:967 JLINK_IsHalted()  returns FALSE (0001ms, 13872ms total)
T2594 13951:970 JLINK_IsHalted() -- CPU_ReadMem(2 bytes @ 0x20000000)  returns TRUE (0006ms, 13877ms total)
T2594 13951:976 JLINK_ReadReg(R15 (PC))  returns 0x20000000 (0000ms, 13871ms total)
T2594 13951:976 JLINK_ClrBPEx(BPHandle = 0x0000000A)  returns 0x00 (0000ms, 13871ms total)
T2594 13951:976 JLINK_ReadReg(R0)  returns 0x00000000 (0000ms, 13871ms total)
T2594 13951:977 JLINK_WriteMem(0x20000164, 0x029C Bytes, ...) - Data: C2 F3 81 32 9A 5C B1 FB F2 F1 01 61 10 BD 00 BF ... -- CPU_WriteMem(668 bytes @ 0x20000164)  returns 0x29C (0009ms, 13880ms total)
T2594 13951:986 JLINK_WriteMem(0x20000400, 0x0164 Bytes, ...) - Data: 1A 43 8B 88 1A 43 CB 88 1A 43 0B 89 1A 43 4B 89 ... -- CPU_WriteMem(356 bytes @ 0x20000400)  returns 0x164 (0006ms, 13886ms total)
T2594 13951:992 JLINK_WriteReg(R0, 0x08001800)  returns 0x00 (0000ms, 13886ms total)
T2594 13951:992 JLINK_WriteReg(R1, 0x00000400)  returns 0x00 (0000ms, 13886ms total)
T2594 13951:992 JLINK_WriteReg(R2, 0x20000164)  returns 0x00 (0000ms, 13886ms total)
T2594 13951:992 JLINK_WriteReg(R3, 0x00000000)  returns 0x00 (0000ms, 13886ms total)
T2594 13951:992 JLINK_WriteReg(R4, 0x00000000)  returns 0x00 (0000ms, 13886ms total)
T2594 13951:992 JLINK_WriteReg(R5, 0x00000000)  returns 0x00 (0000ms, 13886ms total)
T2594 13951:992 JLINK_WriteReg(R6, 0x00000000)  returns 0x00 (0000ms, 13886ms total)
T2594 13951:992 JLINK_WriteReg(R7, 0x00000000)  returns 0x00 (0000ms, 13886ms total)
T2594 13951:992 JLINK_WriteReg(R8, 0x00000000)  returns 0x00 (0000ms, 13886ms total)
T2594 13951:992 JLINK_WriteReg(R9, 0x20000160)  returns 0x00 (0000ms, 13886ms total)
T2594 13951:992 JLINK_WriteReg(R10, 0x00000000)  returns 0x00 (0000ms, 13886ms total)
T2594 13951:992 JLINK_WriteReg(R11, 0x00000000)  returns 0x00 (0000ms, 13886ms total)
T2594 13951:992 JLINK_WriteReg(R12, 0x00000000)  returns 0x00 (0000ms, 13886ms total)
T2594 13951:992 JLINK_WriteReg(R13 (SP), 0x20001000)  returns 0x00 (0000ms, 13886ms total)
T2594 13951:992 JLINK_WriteReg(R14, 0x20000001)  returns 0x00 (0000ms, 13886ms total)
T2594 13951:992 JLINK_WriteReg(R15 (PC), 0x200000F4)  returns 0x00 (0000ms, 13886ms total)
T2594 13951:992 JLINK_WriteReg(XPSR, 0x01000000)  returns 0x00 (0000ms, 13886ms total)
T2594 13951:992 JLINK_WriteReg(MSP, 0x20001000)  returns 0x00 (0000ms, 13886ms total)
T2594 13951:992 JLINK_WriteReg(PSP, 0x20001000)  returns 0x00 (0000ms, 13886ms total)
T2594 13951:992 JLINK_WriteReg(CFBP, 0x00000000)  returns 0x00 (0000ms, 13886ms total)
T2594 13951:992 JLINK_SetBPEx(Addr = 0x20000000, Type = 0xFFFFFFF2)  returns 0x0000000B (0001ms, 13887ms total)
T2594 13951:993 JLINK_Go() -- CPU_ReadMem(4 bytes @ 0xE0001000) (0005ms, 13892ms total)
T2594 13951:998 JLINK_IsHalted()  returns FALSE (0002ms, 13894ms total)
T2594 13952:002 JLINK_IsHalted()  returns FALSE (0001ms, 13893ms total)
T2594 13952:005 JLINK_IsHalted()  returns FALSE (0001ms, 13893ms total)
T2594 13952:008 JLINK_IsHalted()  returns FALSE (0001ms, 13893ms total)
T2594 13952:011 JLINK_IsHalted()  returns FALSE (0002ms, 13894ms total)
T2594 13952:015 JLINK_IsHalted()  returns FALSE (0001ms, 13893ms total)
T2594 13952:018 JLINK_IsHalted()  returns FALSE (0001ms, 13893ms total)
T2594 13952:021 JLINK_IsHalted()  returns FALSE (0001ms, 13893ms total)
T2594 13952:024 JLINK_IsHalted()  returns FALSE (0001ms, 13893ms total)
T2594 13952:027 JLINK_IsHalted()  returns FALSE (0001ms, 13893ms total)
T2594 13952:031 JLINK_IsHalted() -- CPU_ReadMem(2 bytes @ 0x20000000)  returns TRUE (0006ms, 13898ms total)
T2594 13952:037 JLINK_ReadReg(R15 (PC))  returns 0x20000000 (0000ms, 13892ms total)
T2594 13952:037 JLINK_ClrBPEx(BPHandle = 0x0000000B)  returns 0x00 (0000ms, 13892ms total)
T2594 13952:037 JLINK_ReadReg(R0)  returns 0x00000000 (0000ms, 13892ms total)
T2594 13952:038 JLINK_WriteMem(0x20000164, 0x029C Bytes, ...) - Data: 00 00 FF F8 FF FF F6 FE 00 20 02 40 08 ED 00 E0 ... -- CPU_WriteMem(668 bytes @ 0x20000164)  returns 0x29C (0009ms, 13901ms total)
T2594 13952:047 JLINK_WriteMem(0x20000400, 0x0164 Bytes, ...) - Data: 41 02 1A A0 06 F0 54 F8 00 20 5F B0 BD E8 F0 8F ... -- CPU_WriteMem(356 bytes @ 0x20000400)  returns 0x164 (0006ms, 13907ms total)
T2594 13952:053 JLINK_WriteReg(R0, 0x08001C00)  returns 0x00 (0000ms, 13907ms total)
T2594 13952:053 JLINK_WriteReg(R1, 0x00000400)  returns 0x00 (0000ms, 13907ms total)
T2594 13952:053 JLINK_WriteReg(R2, 0x20000164)  returns 0x00 (0000ms, 13907ms total)
T2594 13952:053 JLINK_WriteReg(R3, 0x00000000)  returns 0x00 (0000ms, 13907ms total)
T2594 13952:053 JLINK_WriteReg(R4, 0x00000000)  returns 0x00 (0000ms, 13907ms total)
T2594 13952:053 JLINK_WriteReg(R5, 0x00000000)  returns 0x00 (0000ms, 13907ms total)
T2594 13952:053 JLINK_WriteReg(R6, 0x00000000)  returns 0x00 (0000ms, 13907ms total)
T2594 13952:053 JLINK_WriteReg(R7, 0x00000000)  returns 0x00 (0000ms, 13907ms total)
T2594 13952:053 JLINK_WriteReg(R8, 0x00000000)  returns 0x00 (0000ms, 13907ms total)
T2594 13952:053 JLINK_WriteReg(R9, 0x20000160)  returns 0x00 (0000ms, 13907ms total)
T2594 13952:053 JLINK_WriteReg(R10, 0x00000000)  returns 0x00 (0000ms, 13907ms total)
T2594 13952:053 JLINK_WriteReg(R11, 0x00000000)  returns 0x00 (0000ms, 13907ms total)
T2594 13952:053 JLINK_WriteReg(R12, 0x00000000)  returns 0x00 (0000ms, 13907ms total)
T2594 13952:053 JLINK_WriteReg(R13 (SP), 0x20001000)  returns 0x00 (0001ms, 13908ms total)
T2594 13952:054 JLINK_WriteReg(R14, 0x20000001)  returns 0x00 (0000ms, 13908ms total)
T2594 13952:054 JLINK_WriteReg(R15 (PC), 0x200000F4)  returns 0x00 (0000ms, 13908ms total)
T2594 13952:054 JLINK_WriteReg(XPSR, 0x01000000)  returns 0x00 (0000ms, 13908ms total)
T2594 13952:054 JLINK_WriteReg(MSP, 0x20001000)  returns 0x00 (0000ms, 13908ms total)
T2594 13952:054 JLINK_WriteReg(PSP, 0x20001000)  returns 0x00 (0000ms, 13908ms total)
T2594 13952:054 JLINK_WriteReg(CFBP, 0x00000000)  returns 0x00 (0000ms, 13908ms total)
T2594 13952:054 JLINK_SetBPEx(Addr = 0x20000000, Type = 0xFFFFFFF2)  returns 0x0000000C (0000ms, 13908ms total)
T2594 13952:054 JLINK_Go() -- CPU_ReadMem(4 bytes @ 0xE0001000) (0006ms, 13914ms total)
T2594 13952:060 JLINK_IsHalted()  returns FALSE (0002ms, 13916ms total)
T2594 13952:068 JLINK_IsHalted()  returns FALSE (0002ms, 13916ms total)
T2594 13952:072 JLINK_IsHalted()  returns FALSE (0001ms, 13915ms total)
T2594 13952:075 JLINK_IsHalted()  returns FALSE (0001ms, 13915ms total)
T2594 13952:078 JLINK_IsHalted()  returns FALSE (0001ms, 13915ms total)
T2594 13952:081 JLINK_IsHalted()  returns FALSE (0001ms, 13915ms total)
T2594 13952:084 JLINK_IsHalted()  returns FALSE (0001ms, 13915ms total)
T2594 13952:088 JLINK_IsHalted()  returns FALSE (0000ms, 13914ms total)
T2594 13952:091 JLINK_IsHalted() -- CPU_ReadMem(2 bytes @ 0x20000000)  returns TRUE (0006ms, 13920ms total)
T2594 13952:097 JLINK_ReadReg(R15 (PC))  returns 0x20000000 (0000ms, 13914ms total)
T2594 13952:097 JLINK_ClrBPEx(BPHandle = 0x0000000C)  returns 0x00 (0000ms, 13914ms total)
T2594 13952:097 JLINK_ReadReg(R0)  returns 0x00000000 (0000ms, 13914ms total)
T2594 13952:098 JLINK_WriteMem(0x20000164, 0x029C Bytes, ...) - Data: E1 30 00 90 44 F2 04 00 FF F7 AA FB 14 4D 05 F5 ... -- CPU_WriteMem(668 bytes @ 0x20000164)  returns 0x29C (0009ms, 13923ms total)
T2594 13952:107 JLINK_WriteMem(0x20000400, 0x0164 Bytes, ...) - Data: 80 47 68 69 80 47 68 6A 70 B1 AA 6A 62 B1 20 0A ... -- CPU_WriteMem(356 bytes @ 0x20000400)  returns 0x164 (0005ms, 13928ms total)
T2594 13952:113 JLINK_WriteReg(R0, 0x08002000)  returns 0x00 (0000ms, 13928ms total)
T2594 13952:113 JLINK_WriteReg(R1, 0x00000400)  returns 0x00 (0000ms, 13928ms total)
T2594 13952:113 JLINK_WriteReg(R2, 0x20000164)  returns 0x00 (0000ms, 13928ms total)
T2594 13952:113 JLINK_WriteReg(R3, 0x00000000)  returns 0x00 (0000ms, 13928ms total)
T2594 13952:113 JLINK_WriteReg(R4, 0x00000000)  returns 0x00 (0000ms, 13928ms total)
T2594 13952:113 JLINK_WriteReg(R5, 0x00000000)  returns 0x00 (0000ms, 13928ms total)
T2594 13952:113 JLINK_WriteReg(R6, 0x00000000)  returns 0x00 (0000ms, 13928ms total)
T2594 13952:113 JLINK_WriteReg(R7, 0x00000000)  returns 0x00 (0000ms, 13928ms total)
T2594 13952:113 JLINK_WriteReg(R8, 0x00000000)  returns 0x00 (0000ms, 13928ms total)
T2594 13952:113 JLINK_WriteReg(R9, 0x20000160)  returns 0x00 (0000ms, 13928ms total)
T2594 13952:113 JLINK_WriteReg(R10, 0x00000000)  returns 0x00 (0000ms, 13928ms total)
T2594 13952:113 JLINK_WriteReg(R11, 0x00000000)  returns 0x00 (0000ms, 13928ms total)
T2594 13952:113 JLINK_WriteReg(R12, 0x00000000)  returns 0x00 (0000ms, 13928ms total)
T2594 13952:113 JLINK_WriteReg(R13 (SP), 0x20001000)  returns 0x00 (0000ms, 13928ms total)
T2594 13952:113 JLINK_WriteReg(R14, 0x20000001)  returns 0x00 (0001ms, 13929ms total)
T2594 13952:114 JLINK_WriteReg(R15 (PC), 0x200000F4)  returns 0x00 (0000ms, 13929ms total)
T2594 13952:114 JLINK_WriteReg(XPSR, 0x01000000)  returns 0x00 (0000ms, 13929ms total)
T2594 13952:114 JLINK_WriteReg(MSP, 0x20001000)  returns 0x00 (0000ms, 13929ms total)
T2594 13952:114 JLINK_WriteReg(PSP, 0x20001000)  returns 0x00 (0000ms, 13929ms total)
T2594 13952:114 JLINK_WriteReg(CFBP, 0x00000000)  returns 0x00 (0000ms, 13929ms total)
T2594 13952:114 JLINK_SetBPEx(Addr = 0x20000000, Type = 0xFFFFFFF2)  returns 0x0000000D (0000ms, 13929ms total)
T2594 13952:114 JLINK_Go() -- CPU_ReadMem(4 bytes @ 0xE0001000) (0006ms, 13935ms total)
T2594 13952:120 JLINK_IsHalted()  returns FALSE (0001ms, 13936ms total)
T2594 13952:124 JLINK_IsHalted()  returns FALSE (0000ms, 13935ms total)
T2594 13952:127 JLINK_IsHalted()  returns FALSE (0000ms, 13935ms total)
T2594 13952:130 JLINK_IsHalted()  returns FALSE (0000ms, 13935ms total)
T2594 13952:132 JLINK_IsHalted()  returns FALSE (0001ms, 13936ms total)
T2594 13952:135 JLINK_IsHalted()  returns FALSE (0001ms, 13936ms total)
T2594 13952:145 JLINK_IsHalted()  returns FALSE (0000ms, 13935ms total)
T2594 13952:147 JLINK_IsHalted()  returns FALSE (0001ms, 13936ms total)
T2594 13952:150 JLINK_IsHalted() -- CPU_ReadMem(2 bytes @ 0x20000000)  returns TRUE (0006ms, 13941ms total)
T2594 13952:156 JLINK_ReadReg(R15 (PC))  returns 0x20000000 (0000ms, 13935ms total)
T2594 13952:156 JLINK_ClrBPEx(BPHandle = 0x0000000D)  returns 0x00 (0000ms, 13935ms total)
T2594 13952:156 JLINK_ReadReg(R0)  returns 0x00000000 (0000ms, 13935ms total)
T2594 13952:158 JLINK_WriteMem(0x20000164, 0x029C Bytes, ...) - Data: C6 F3 07 20 88 47 39 6A 5F FA 88 F0 88 47 04 E0 ... -- CPU_WriteMem(668 bytes @ 0x20000164)  returns 0x29C (0009ms, 13944ms total)
T2594 13952:167 JLINK_WriteMem(0x20000400, 0x0164 Bytes, ...) - Data: 01 00 20 71 38 46 BD E8 F0 81 00 00 10 B5 05 28 ... -- CPU_WriteMem(356 bytes @ 0x20000400)  returns 0x164 (0005ms, 13949ms total)
T2594 13952:172 JLINK_WriteReg(R0, 0x08002400)  returns 0x00 (0000ms, 13949ms total)
T2594 13952:172 JLINK_WriteReg(R1, 0x00000400)  returns 0x00 (0000ms, 13949ms total)
T2594 13952:172 JLINK_WriteReg(R2, 0x20000164)  returns 0x00 (0000ms, 13949ms total)
T2594 13952:172 JLINK_WriteReg(R3, 0x00000000)  returns 0x00 (0000ms, 13949ms total)
T2594 13952:172 JLINK_WriteReg(R4, 0x00000000)  returns 0x00 (0000ms, 13949ms total)
T2594 13952:172 JLINK_WriteReg(R5, 0x00000000)  returns 0x00 (0000ms, 13949ms total)
T2594 13952:172 JLINK_WriteReg(R6, 0x00000000)  returns 0x00 (0000ms, 13949ms total)
T2594 13952:172 JLINK_WriteReg(R7, 0x00000000)  returns 0x00 (0000ms, 13949ms total)
T2594 13952:172 JLINK_WriteReg(R8, 0x00000000)  returns 0x00 (0000ms, 13949ms total)
